+ sudo /home/pi/openocd-spi/src/openocd -d4 -s /home/pi/openocd-spi/tcl -f scripts/nrf52-pi/swd-pi.ocd -f scripts/nrf52-pi/flash-unprotect.ocd
Open On-Chip Debugger 0.10.0+dev-01004-g8f19391d (2020-01-14-00:35)
Licensed under GNU GPL v2
For bug reports, read
	http://openocd.org/doc/doxygen/bugs.html
User : 13 7 options.c:63 configuration_output_handler(): debug_level: 4
User : 14 7 options.c:63 configuration_output_handler(): 
Debug: 15 7 configuration.c:42 add_script_search_dir(): adding /home/pi/openocd-spi/tcl
Debug: 16 7 options.c:187 add_default_dirs(): bindir=/usr/local/bin
Debug: 17 7 options.c:188 add_default_dirs(): pkgdatadir=/usr/local/share/openocd
Debug: 18 7 options.c:189 add_default_dirs(): exepath=/home/pi/openocd-spi/src
Debug: 19 7 options.c:190 add_default_dirs(): bin2data=../share/openocd
Debug: 20 7 configuration.c:42 add_script_search_dir(): adding /root/.openocd
Debug: 21 7 configuration.c:42 add_script_search_dir(): adding /home/pi/openocd-spi/src/../share/openocd/site
Debug: 22 7 configuration.c:42 add_script_search_dir(): adding /home/pi/openocd-spi/src/../share/openocd/scripts
Debug: 23 8 configuration.c:97 find_file(): found scripts/nrf52-pi/swd-pi.ocd
Debug: 24 8 command.c:143 script_debug(): command - interface interface bcm2835gpio
Debug: 26 8 command.c:354 register_command_handler(): registering 'bcm2835gpio_jtag_nums'...
Debug: 27 8 command.c:354 register_command_handler(): registering 'bcm2835gpio_tck_num'...
Debug: 28 8 command.c:354 register_command_handler(): registering 'bcm2835gpio_tms_num'...
Debug: 29 8 command.c:354 register_command_handler(): registering 'bcm2835gpio_tdo_num'...
Debug: 30 8 command.c:354 register_command_handler(): registering 'bcm2835gpio_tdi_num'...
Debug: 31 8 command.c:354 register_command_handler(): registering 'bcm2835gpio_swd_nums'...
Debug: 32 8 command.c:354 register_command_handler(): registering 'bcm2835gpio_swclk_num'...
Debug: 33 8 command.c:354 register_command_handler(): registering 'bcm2835gpio_swdio_num'...
Debug: 34 8 command.c:354 register_command_handler(): registering 'bcm2835gpio_srst_num'...
Debug: 35 8 command.c:354 register_command_handler(): registering 'bcm2835gpio_trst_num'...
Debug: 36 8 command.c:354 register_command_handler(): registering 'bcm2835gpio_speed_coeffs'...
Debug: 37 8 command.c:354 register_command_handler(): registering 'bcm2835gpio_peripheral_base'...
Debug: 38 8 command.c:143 script_debug(): command - bcm2835gpio_peripheral_base bcm2835gpio_peripheral_base 0xFE000000
Debug: 40 8 command.c:143 script_debug(): command - bcm2835gpio_speed_coeffs bcm2835gpio_speed_coeffs 236181 60
Debug: 42 8 command.c:143 script_debug(): command - bcm2835gpio_swd_nums bcm2835gpio_swd_nums 20 21
Debug: 44 9 command.c:143 script_debug(): command - bcm2835gpio_srst_num bcm2835gpio_srst_num 18
Debug: 46 9 command.c:143 script_debug(): command - transport transport select swd
Debug: 47 9 command.c:354 register_command_handler(): registering 'swd'...
Debug: 48 9 bitbang.c:402 bitbang_swd_init(): bitbang_swd_init
Debug: 49 9 configuration.c:97 find_file(): found /home/pi/openocd-spi/tcl/target/nrf52.cfg
Debug: 50 9 configuration.c:97 find_file(): found /home/pi/openocd-spi/tcl/target/swj-dp.tcl
Debug: 51 9 command.c:143 script_debug(): command - transport transport select
Debug: 52 9 command.c:143 script_debug(): command - transport transport select
Debug: 53 10 command.c:143 script_debug(): command - transport transport select
Debug: 54 10 command.c:143 script_debug(): command - transport transport select
Debug: 55 10 command.c:143 script_debug(): command - swd swd newdap nrf52 cpu -expected-id 0x2ba01477
Debug: 56 10 tcl.c:567 jim_newtap_cmd(): Creating New Tap, Chip: nrf52, Tap: cpu, Dotted: nrf52.cpu, 2 params
Debug: 57 10 core.c:1375 jtag_tap_init(): Created Tap: nrf52.cpu @ abs position 0, irlen 0, capture: 0x0 mask: 0x0
Debug: 58 10 command.c:143 script_debug(): command - dap dap create nrf52.dap -chain-position nrf52.cpu
Debug: 59 10 command.c:354 register_command_handler(): registering 'nrf52.dap'...
Debug: 60 10 command.c:354 register_command_handler(): registering 'nrf52.dap'...
Debug: 61 10 command.c:354 register_command_handler(): registering 'nrf52.dap'...
Debug: 62 10 command.c:354 register_command_handler(): registering 'nrf52.dap'...
Debug: 63 10 command.c:354 register_command_handler(): registering 'nrf52.dap'...
Debug: 64 10 command.c:354 register_command_handler(): registering 'nrf52.dap'...
Debug: 65 10 command.c:354 register_command_handler(): registering 'nrf52.dap'...
Debug: 66 10 command.c:354 register_command_handler(): registering 'nrf52.dap'...
Debug: 67 10 command.c:354 register_command_handler(): registering 'nrf52.dap'...
Debug: 68 10 command.c:143 script_debug(): command - target target create nrf52.cpu cortex_m -dap nrf52.dap
Debug: 69 11 command.c:354 register_command_handler(): registering 'arm'...
Debug: 70 11 command.c:354 register_command_handler(): registering 'arm'...
Debug: 71 11 command.c:354 register_command_handler(): registering 'arm'...
Debug: 72 11 command.c:354 register_command_handler(): registering 'arm'...
Debug: 73 11 command.c:354 register_command_handler(): registering 'arm'...
Debug: 74 11 command.c:354 register_command_handler(): registering 'arm'...
Debug: 75 11 command.c:354 register_command_handler(): registering 'arm'...
Debug: 76 11 command.c:354 register_command_handler(): registering 'arm'...
Debug: 77 11 command.c:354 register_command_handler(): registering 'arm'...
Debug: 78 11 command.c:354 register_command_handler(): registering 'tpiu'...
Debug: 79 11 command.c:354 register_command_handler(): registering 'itm'...
Debug: 80 11 command.c:354 register_command_handler(): registering 'itm'...
Debug: 81 11 command.c:354 register_command_handler(): registering 'cortex_m'...
Debug: 82 11 command.c:354 register_command_handler(): registering 'cortex_m'...
Debug: 83 11 command.c:354 register_command_handler(): registering 'cortex_m'...
Debug: 84 11 command.c:354 register_command_handler(): registering 'nrf52.cpu'...
Debug: 85 11 command.c:354 register_command_handler(): registering 'nrf52.cpu'...
Debug: 86 11 command.c:354 register_command_handler(): registering 'nrf52.cpu'...
Debug: 87 11 command.c:354 register_command_handler(): registering 'nrf52.cpu'...
Debug: 88 11 command.c:354 register_command_handler(): registering 'nrf52.cpu'...
Debug: 89 11 command.c:354 register_command_handler(): registering 'nrf52.cpu'...
Debug: 90 11 command.c:354 register_command_handler(): registering 'nrf52.cpu'...
Debug: 91 12 command.c:354 register_command_handler(): registering 'nrf52.cpu'...
Debug: 92 12 command.c:354 register_command_handler(): registering 'nrf52.cpu'...
Debug: 93 12 command.c:354 register_command_handler(): registering 'nrf52.cpu'...
Debug: 94 12 command.c:354 register_command_handler(): registering 'nrf52.cpu'...
Debug: 95 12 command.c:354 register_command_handler(): registering 'nrf52.cpu'...
Debug: 96 12 command.c:354 register_command_handler(): registering 'nrf52.cpu'...
Debug: 97 12 command.c:354 register_command_handler(): registering 'nrf52.cpu'...
Debug: 98 12 command.c:354 register_command_handler(): registering 'nrf52.cpu'...
Debug: 99 12 command.c:354 register_command_handler(): registering 'nrf52.cpu'...
Debug: 100 12 command.c:354 register_command_handler(): registering 'nrf52.cpu'...
Debug: 101 12 command.c:354 register_command_handler(): registering 'nrf52.cpu'...
Debug: 102 12 command.c:354 register_command_handler(): registering 'nrf52.cpu'...
Debug: 103 12 command.c:354 register_command_handler(): registering 'nrf52.cpu'...
Debug: 104 12 command.c:354 register_command_handler(): registering 'nrf52.cpu'...
Debug: 105 12 command.c:354 register_command_handler(): registering 'nrf52.cpu'...
Debug: 106 12 command.c:354 register_command_handler(): registering 'nrf52.cpu'...
Debug: 107 12 command.c:354 register_command_handler(): registering 'nrf52.cpu'...
Debug: 108 12 command.c:354 register_command_handler(): registering 'nrf52.cpu'...
Debug: 109 12 command.c:354 register_command_handler(): registering 'nrf52.cpu'...
Debug: 110 12 command.c:354 register_command_handler(): registering 'nrf52.cpu'...
Debug: 111 12 command.c:354 register_command_handler(): registering 'nrf52.cpu'...
Debug: 112 12 command.c:354 register_command_handler(): registering 'nrf52.cpu'...
Debug: 113 12 command.c:354 register_command_handler(): registering 'nrf52.cpu'...
Debug: 114 12 command.c:354 register_command_handler(): registering 'nrf52.cpu'...
Debug: 115 12 command.c:354 register_command_handler(): registering 'nrf52.cpu'...
Debug: 116 12 command.c:354 register_command_handler(): registering 'nrf52.cpu'...
Debug: 117 12 command.c:354 register_command_handler(): registering 'nrf52.cpu'...
Debug: 118 12 command.c:354 register_command_handler(): registering 'nrf52.cpu'...
Debug: 119 12 command.c:354 register_command_handler(): registering 'nrf52.cpu'...
Debug: 120 12 command.c:354 register_command_handler(): registering 'nrf52.cpu'...
Debug: 121 13 command.c:354 register_command_handler(): registering 'nrf52.cpu'...
Debug: 122 13 command.c:354 register_command_handler(): registering 'nrf52.cpu'...
Debug: 123 13 command.c:354 register_command_handler(): registering 'nrf52.cpu'...
Debug: 124 13 command.c:354 register_command_handler(): registering 'nrf52.cpu'...
Debug: 125 13 command.c:354 register_command_handler(): registering 'nrf52.cpu'...
Debug: 126 13 command.c:143 script_debug(): command - adapter_khz adapter_khz 1000
Debug: 128 13 core.c:1707 jtag_config_khz(): handle jtag khz
Debug: 129 13 core.c:1670 adapter_khz_to_speed(): convert khz to interface specific speed value
Debug: 130 13 core.c:1670 adapter_khz_to_speed(): convert khz to interface specific speed value
Debug: 131 13 command.c:143 script_debug(): command - nrf52.cpu nrf52.cpu configure -work-area-phys 0x20000000 -work-area-size 0x4000 -work-area-backup 0
Debug: 132 13 target.c:1961 target_free_all_working_areas_restore(): freeing all working areas
Debug: 133 13 target.c:1961 target_free_all_working_areas_restore(): freeing all working areas
Debug: 134 13 target.c:1961 target_free_all_working_areas_restore(): freeing all working areas
Debug: 135 13 command.c:143 script_debug(): command - transport transport select
Debug: 136 13 command.c:143 script_debug(): command - cortex_m cortex_m reset_config sysresetreq
Debug: 138 13 command.c:143 script_debug(): command - flash flash bank nrf52.flash nrf5 0x00000000 0 1 1 nrf52.cpu
Debug: 140 13 command.c:354 register_command_handler(): registering 'nrf5'...
Debug: 141 13 command.c:354 register_command_handler(): registering 'nrf5'...
Debug: 142 13 command.c:354 register_command_handler(): registering 'nrf51'...
Debug: 143 13 command.c:354 register_command_handler(): registering 'nrf51'...
Debug: 144 13 tcl.c:1156 handle_flash_bank_command(): 'nrf5' driver usage field missing
Debug: 145 14 command.c:143 script_debug(): command - flash flash bank nrf52.uicr nrf5 0x10001000 0 1 1 nrf52.cpu
Debug: 147 14 command.c:376 register_command(): command 'nrf5' is already registered in '<global>' context
Debug: 148 14 command.c:376 register_command(): command 'mass_erase' is already registered in 'nrf5' context
Debug: 149 14 command.c:376 register_command(): command 'info' is already registered in 'nrf5' context
Debug: 150 14 command.c:376 register_command(): command 'nrf51' is already registered in '<global>' context
Debug: 151 14 command.c:376 register_command(): command 'mass_erase' is already registered in 'nrf51' context
Debug: 152 14 command.c:376 register_command(): command 'info' is already registered in 'nrf51' context
Debug: 153 14 tcl.c:1156 handle_flash_bank_command(): 'nrf5' driver usage field missing
Debug: 154 14 configuration.c:97 find_file(): found scripts/nrf52-pi/flash-unprotect.ocd
Debug: 155 14 command.c:143 script_debug(): command - gdb_flash_program gdb_flash_program enable
Debug: 157 14 command.c:143 script_debug(): command - gdb_breakpoint_override gdb_breakpoint_override hard
User : 159 14 gdb_server.c:3669 handle_gdb_breakpoint_override_command(): force hard breakpoints
Debug: 160 14 command.c:143 script_debug(): command - init init
Debug: 162 14 command.c:143 script_debug(): command - target target init
Debug: 164 14 command.c:143 script_debug(): command - target target names
Debug: 165 15 command.c:143 script_debug(): command - nrf52.cpu nrf52.cpu cget -event gdb-flash-erase-start
Debug: 166 15 command.c:143 script_debug(): command - nrf52.cpu nrf52.cpu configure -event gdb-flash-erase-start reset init
Debug: 167 15 command.c:143 script_debug(): command - nrf52.cpu nrf52.cpu cget -event gdb-flash-write-end
Debug: 168 15 command.c:143 script_debug(): command - nrf52.cpu nrf52.cpu configure -event gdb-flash-write-end reset halt
Debug: 169 15 command.c:143 script_debug(): command - nrf52.cpu nrf52.cpu cget -event gdb-attach
Debug: 170 15 command.c:143 script_debug(): command - nrf52.cpu nrf52.cpu configure -event gdb-attach halt
Debug: 171 15 target.c:1423 handle_target_init_command(): Initializing targets...
Debug: 172 15 semihosting_common.c:97 semihosting_common_init():  
Debug: 173 15 command.c:354 register_command_handler(): registering 'target_request'...
Debug: 174 15 command.c:354 register_command_handler(): registering 'trace'...
Debug: 175 15 command.c:354 register_command_handler(): registering 'trace'...
Debug: 176 15 command.c:354 register_command_handler(): registering 'fast_load_image'...
Debug: 177 15 command.c:354 register_command_handler(): registering 'fast_load'...
Debug: 178 15 command.c:354 register_command_handler(): registering 'profile'...
Debug: 179 15 command.c:354 register_command_handler(): registering 'virt2phys'...
Debug: 180 15 command.c:354 register_command_handler(): registering 'reg'...
Debug: 181 15 command.c:354 register_command_handler(): registering 'poll'...
Debug: 182 15 command.c:354 register_command_handler(): registering 'wait_halt'...
Debug: 183 15 command.c:354 register_command_handler(): registering 'halt'...
Debug: 184 15 command.c:354 register_command_handler(): registering 'resume'...
Debug: 185 15 command.c:354 register_command_handler(): registering 'reset'...
Debug: 186 16 command.c:354 register_command_handler(): registering 'soft_reset_halt'...
Debug: 187 16 command.c:354 register_command_handler(): registering 'step'...
Debug: 188 16 command.c:354 register_command_handler(): registering 'mdd'...
Debug: 189 16 command.c:354 register_command_handler(): registering 'mdw'...
Debug: 190 16 command.c:354 register_command_handler(): registering 'mdh'...
Debug: 191 16 command.c:354 register_command_handler(): registering 'mdb'...
Debug: 192 16 command.c:354 register_command_handler(): registering 'mwd'...
Debug: 193 16 command.c:354 register_command_handler(): registering 'mww'...
Debug: 194 16 command.c:354 register_command_handler(): registering 'mwh'...
Debug: 195 16 command.c:354 register_command_handler(): registering 'mwb'...
Debug: 196 16 command.c:354 register_command_handler(): registering 'bp'...
Debug: 197 16 command.c:354 register_command_handler(): registering 'rbp'...
Debug: 198 16 command.c:354 register_command_handler(): registering 'wp'...
Debug: 199 16 command.c:354 register_command_handler(): registering 'rwp'...
Debug: 200 16 command.c:354 register_command_handler(): registering 'load_image'...
Debug: 201 16 command.c:354 register_command_handler(): registering 'dump_image'...
Debug: 202 16 command.c:354 register_command_handler(): registering 'verify_image_checksum'...
Debug: 203 16 command.c:354 register_command_handler(): registering 'verify_image'...
Debug: 204 16 command.c:354 register_command_handler(): registering 'test_image'...
Debug: 205 16 command.c:354 register_command_handler(): registering 'reset_nag'...
Debug: 206 16 command.c:354 register_command_handler(): registering 'ps'...
Debug: 207 16 command.c:354 register_command_handler(): registering 'test_mem_access'...
Info : 208 16 bcm2835gpio.c:450 bcm2835gpio_init(): BCM2835 GPIO JTAG/SWD bitbang driver
Info : 209 16 bcm2835gpio.c:458 bcm2835gpio_init(): SWD only mode enabled (specify tck, tms, tdi and tdo gpios to add JTAG mode)
Debug: 210 17 bcm2835gpio.c:525 bcm2835gpio_init(): saved pinmux settings: tck 0 tms 0 tdi 0 tdo 0 trst 0 srst 1
Debug: 211 17 bitbang.c:484 bitbang_switch_to_swd(): bitbang_switch_to_swd
** host -> trgt offset 0 bits 136: ff ff ff ff ff ff ff 9e e7 ff ff ff ff ff ff ff 00
spi_init spi mode: 80
bits per word: 8
max speed: 122000 Hz (122 KHz)
spi_transmit: len=17
  FF FF FF FF FF FF FF 79 
  E7 FF FF FF FF FF FF FF 
  00 
Debug: 212 21 core.c:1670 adapter_khz_to_speed(): convert khz to interface specific speed value
Debug: 213 21 core.c:1674 adapter_khz_to_speed(): have interface set up
Debug: 214 21 core.c:1670 adapter_khz_to_speed(): convert khz to interface specific speed value
Debug: 215 21 core.c:1674 adapter_khz_to_speed(): have interface set up
Info : 216 21 core.c:1452 adapter_init(): clock speed 1000 kHz
Debug: 217 21 openocd.c:141 handle_init_command(): Debug Adapter init complete
Debug: 218 21 command.c:143 script_debug(): command - transport transport init
Debug: 220 21 transport.c:239 handle_transport_init(): handle_transport_init
Debug: 221 21 command.c:143 script_debug(): command - dap dap init
Debug: 223 21 arm_dap.c:106 dap_init_all(): Initializing all DAPs ...
Debug: 224 21 bitbang.c:459 bitbang_swd_switch_seq(): bitbang_swd_switch_seq
Debug: 225 21 bitbang.c:467 bitbang_swd_switch_seq(): JTAG-to-SWD
** host -> trgt offset 0 bits 136: ff ff ff ff ff ff ff 9e e7 ff ff ff ff ff ff ff 00
spi_transmit: len=17
  FF FF FF FF FF FF FF 79 
  E7 FF FF FF FF FF FF FF 
  00 
Debug: 226 22 bitbang.c:496 bitbang_swd_read_reg(): bitbang_swd_read_reg
** host -> trgt offset 0 bits  8: a5
spi_transmit: len=1
  A5 
spi_receive: len=5
  73 47 01 BA E2 
spi_exchange_receive: JTAG-to-SWD seq
spi_transmit: len=17
  FF FF FF FF FF FF FF 79 
  E7 FF FF FF FF FF FF FF 
  00 
spi_exchange_receive: Prepadded read reg 0 seq
spi_transmit: len=6
  29 40 00 00 00 00 
** trgt -> host offset 0 bits 38: 73 47 01 ba e2
Debug: 227 25 bitbang.c:523 bitbang_swd_read_reg(): OK DP read reg 0 = 2ba01477
Debug: 228 25 bitbang.c:555 bitbang_swd_write_reg(): bitbang_swd_write_reg
** host -> trgt offset 0 bits  8: 81
spi_transmit: len=1
  81 
write ack force OK
** trgt -> host offset 0 bits  5: 13
** host -> trgt offset 5 bits 33: 13 03 00 00 80
  pad 2
spi_transmit: len=5
  C8 C0 00 00 00 
Debug: 229 26 bitbang.c:582 bitbang_swd_write_reg(): OK DP write reg 0 = 00000018
Debug: 230 26 bitbang.c:607 bitbang_swd_run_queue(): bitbang_swd_run_queue
spi_transmit: len=1
  00 
Debug: 231 26 bitbang.c:614 bitbang_swd_run_queue(): SWD queue return value: 00
Info : 232 26 adi_v5_swd.c:136 swd_connect(): SWD DPIDR 0x2ba01477
Debug: 233 26 arm_adi_v5.c:653 dap_dp_init(): nrf52.dap
Debug: 234 26 bitbang.c:555 bitbang_swd_write_reg(): bitbang_swd_write_reg
** host -> trgt offset 0 bits  8: b1
spi_transmit: len=1
  8D 
write ack force OK
** trgt -> host offset 0 bits  5: 13
** host -> trgt offset 5 bits 33: 13 00 00 00 80
  pad 2
spi_transmit: len=5
  C8 00 00 00 00 
Debug: 235 27 bitbang.c:582 bitbang_swd_write_reg(): OK DP write reg 8 = 00000000
Debug: 236 27 bitbang.c:496 bitbang_swd_read_reg(): bitbang_swd_read_reg
** host -> trgt offset 0 bits  8: 8d
spi_transmit: len=1
  B1 
spi_receive: len=5
  03 00 00 00 EF 
spi_exchange_receive: JTAG-to-SWD seq
spi_transmit: len=17
  FF FF FF FF FF FF FF 79 
  E7 FF FF FF FF FF FF FF 
  00 
spi_exchange_receive: Prepadded read reg 0 seq
spi_transmit: len=6
  29 40 00 00 00 00 
** trgt -> host offset 0 bits 38: 03 00 00 00 2f
Debug: 237 29 bitbang.c:523 bitbang_swd_read_reg(): OK DP read reg 4 = f0000000
Debug: 238 29 bitbang.c:607 bitbang_swd_run_queue(): bitbang_swd_run_queue
spi_transmit: len=1
  00 
Debug: 239 29 bitbang.c:614 bitbang_swd_run_queue(): SWD queue return value: 00
Debug: 240 29 bitbang.c:555 bitbang_swd_write_reg(): bitbang_swd_write_reg
** host -> trgt offset 0 bits  8: a9
spi_transmit: len=1
  95 
write ack force OK
** trgt -> host offset 0 bits  5: 13
** host -> trgt offset 5 bits 33: 13 04 00 00 aa
  pad 2
spi_transmit: len=5
  C8 20 00 00 54 
Debug: 241 30 bitbang.c:582 bitbang_swd_write_reg(): OK DP write reg 4 = 50000020
Debug: 242 30 bitbang.c:496 bitbang_swd_read_reg(): bitbang_swd_read_reg
** host -> trgt offset 0 bits  8: 8d
spi_transmit: len=1
  B1 
spi_receive: len=5
  03 00 00 00 EF 
spi_exchange_receive: JTAG-to-SWD seq
spi_transmit: len=17
  FF FF FF FF FF FF FF 79 
  E7 FF FF FF FF FF FF FF 
  00 
spi_exchange_receive: Prepadded read reg 0 seq
spi_transmit: len=6
  29 40 00 00 00 00 
** trgt -> host offset 0 bits 38: 03 00 00 00 af
Debug: 243 33 bitbang.c:523 bitbang_swd_read_reg(): OK DP read reg 4 = f0000000
Debug: 244 33 bitbang.c:555 bitbang_swd_write_reg(): bitbang_swd_write_reg
** host -> trgt offset 0 bits  8: a9
spi_transmit: len=1
  95 
write ack force OK
** trgt -> host offset 0 bits  5: 13
** host -> trgt offset 5 bits 33: 13 00 00 00 8a
  pad 2
spi_transmit: len=5
  C8 00 00 00 50 
Debug: 245 33 bitbang.c:582 bitbang_swd_write_reg(): OK DP write reg 4 = 50000000
Debug: 246 33 arm_adi_v5.c:698 dap_dp_init(): DAP: wait CDBGPWRUPACK
Debug: 247 33 arm_adi_v5.h:501 dap_dp_poll_register(): DAP: poll 4, mask 0x20000000, value 0x20000000
Debug: 248 33 bitbang.c:496 bitbang_swd_read_reg(): bitbang_swd_read_reg
** host -> trgt offset 0 bits  8: 8d
spi_transmit: len=1
  B1 
spi_receive: len=5
  03 00 00 00 EF 
spi_exchange_receive: JTAG-to-SWD seq
spi_transmit: len=17
  FF FF FF FF FF FF FF 79 
  E7 FF FF FF FF FF FF FF 
  00 
spi_exchange_receive: Prepadded read reg 0 seq
spi_transmit: len=6
  29 40 00 00 00 00 
** trgt -> host offset 0 bits 38: 03 00 00 00 2f
Debug: 249 36 bitbang.c:523 bitbang_swd_read_reg(): OK DP read reg 4 = f0000000
Debug: 250 36 bitbang.c:607 bitbang_swd_run_queue(): bitbang_swd_run_queue
spi_transmit: len=1
  00 
Debug: 251 36 bitbang.c:614 bitbang_swd_run_queue(): SWD queue return value: 00
Debug: 252 36 arm_adi_v5.c:706 dap_dp_init(): DAP: wait CSYSPWRUPACK
Debug: 253 36 arm_adi_v5.h:501 dap_dp_poll_register(): DAP: poll 4, mask 0x80000000, value 0x80000000
Debug: 254 36 bitbang.c:496 bitbang_swd_read_reg(): bitbang_swd_read_reg
** host -> trgt offset 0 bits  8: 8d
spi_transmit: len=1
  B1 
spi_receive: len=5
  03 00 00 00 EF 
spi_exchange_receive: JTAG-to-SWD seq
spi_transmit: len=17
  FF FF FF FF FF FF FF 79 
  E7 FF FF FF FF FF FF FF 
  00 
spi_exchange_receive: Prepadded read reg 0 seq
spi_transmit: len=6
  29 40 00 00 00 00 
** trgt -> host offset 0 bits 38: 03 00 00 00 2f
Debug: 255 39 bitbang.c:523 bitbang_swd_read_reg(): OK DP read reg 4 = f0000000
Debug: 256 39 bitbang.c:607 bitbang_swd_run_queue(): bitbang_swd_run_queue
spi_transmit: len=1
  00 
Debug: 257 39 bitbang.c:614 bitbang_swd_run_queue(): SWD queue return value: 00
Debug: 258 39 bitbang.c:496 bitbang_swd_read_reg(): bitbang_swd_read_reg
** host -> trgt offset 0 bits  8: 8d
spi_transmit: len=1
  B1 
spi_receive: len=5
  03 00 00 00 EF 
spi_exchange_receive: JTAG-to-SWD seq
spi_transmit: len=17
  FF FF FF FF FF FF FF 79 
  E7 FF FF FF FF FF FF FF 
  00 
spi_exchange_receive: Prepadded read reg 0 seq
spi_transmit: len=6
  29 40 00 00 00 00 
** trgt -> host offset 0 bits 38: 03 00 00 00 af
Debug: 259 42 bitbang.c:523 bitbang_swd_read_reg(): OK DP read reg 4 = f0000000
Debug: 260 42 bitbang.c:555 bitbang_swd_write_reg(): bitbang_swd_write_reg
** host -> trgt offset 0 bits  8: a9
spi_transmit: len=1
  95 
write ack force OK
** trgt -> host offset 0 bits  5: 13
** host -> trgt offset 5 bits 33: 13 00 00 00 aa
  pad 2
spi_transmit: len=5
  C8 00 00 00 54 
Debug: 261 42 bitbang.c:582 bitbang_swd_write_reg(): OK DP write reg 4 = 50000000
Debug: 262 42 bitbang.c:496 bitbang_swd_read_reg(): bitbang_swd_read_reg
** host -> trgt offset 0 bits  8: 8d
spi_transmit: len=1
  B1 
spi_receive: len=5
  03 08 00 00 FF 
spi_exchange_receive: JTAG-to-SWD seq
spi_transmit: len=17
  FF FF FF FF FF FF FF 79 
  E7 FF FF FF FF FF FF FF 
  00 
spi_exchange_receive: Prepadded read reg 0 seq
spi_transmit: len=6
  29 40 00 00 00 00 
** trgt -> host offset 0 bits 38: 03 08 00 00 bf
Debug: 263 45 bitbang.c:523 bitbang_swd_read_reg(): OK DP read reg 4 = f0000080
Debug: 264 45 bitbang.c:607 bitbang_swd_run_queue(): bitbang_swd_run_queue
spi_transmit: len=1
  00 
Debug: 265 45 bitbang.c:614 bitbang_swd_run_queue(): SWD queue return value: 00
Debug: 266 45 openocd.c:158 handle_init_command(): Examining targets...
Debug: 267 45 target.c:1611 target_call_event_callbacks(): target event 17 (examine-start) for core nrf52.cpu
Debug: 268 45 bitbang.c:555 bitbang_swd_write_reg(): bitbang_swd_write_reg
** host -> trgt offset 0 bits  8: b1
spi_transmit: len=1
  8D 
write ack force OK
** trgt -> host offset 0 bits  5: 13
** host -> trgt offset 5 bits 33: 13 1e 00 00 c0
  pad 2
spi_transmit: len=5
  C8 78 00 00 00 
Debug: 269 46 bitbang.c:582 bitbang_swd_write_reg(): OK DP write reg 8 = 000000f0
Debug: 270 46 bitbang.c:496 bitbang_swd_read_reg(): bitbang_swd_read_reg
** host -> trgt offset 0 bits  8: 9f
spi_transmit: len=1
  F9 
spi_receive: len=5
  FF FF FF FF FF 
spi_exchange_receive: JTAG-to-SWD seq
spi_transmit: len=17
  FF FF FF FF FF FF FF 79 
  E7 FF FF FF FF FF FF FF 
  00 
spi_exchange_receive: Prepadded read reg 0 seq
spi_transmit: len=6
  29 40 00 00 00 00 
** trgt -> host offset 0 bits 38: ff ff ff ff 3f
Debug: 271 48 bitbang.c:523 bitbang_swd_read_reg(): JUNK AP read reg C = ffffffff
Debug: 272 48 bitbang.c:546 bitbang_swd_read_reg(): No valid acknowledge: ack=7
Debug: 273 48 bitbang.c:496 bitbang_swd_read_reg(): bitbang_swd_read_reg
Debug: 274 48 bitbang.c:500 bitbang_swd_read_reg(): Skip bitbang_swd_read_reg because queued_retval=7
Debug: 275 48 bitbang.c:607 bitbang_swd_run_queue(): bitbang_swd_run_queue
spi_transmit: len=1
  00 
Debug: 276 49 bitbang.c:614 bitbang_swd_run_queue(): SWD queue return value: 07
Debug: 277 49 bitbang.c:459 bitbang_swd_switch_seq(): bitbang_swd_switch_seq
Debug: 278 49 bitbang.c:467 bitbang_swd_switch_seq(): JTAG-to-SWD
** host -> trgt offset 0 bits 136: ff ff ff ff ff ff ff 9e e7 ff ff ff ff ff ff ff 00
spi_transmit: len=17
  FF FF FF FF FF FF FF 79 
  E7 FF FF FF FF FF FF FF 
  00 
Debug: 279 50 bitbang.c:496 bitbang_swd_read_reg(): bitbang_swd_read_reg
** host -> trgt offset 0 bits  8: a5
spi_transmit: len=1
  A5 
spi_receive: len=5
  73 47 01 BA E2 
spi_exchange_receive: JTAG-to-SWD seq
spi_transmit: len=17
  FF FF FF FF FF FF FF 79 
  E7 FF FF FF FF FF FF FF 
  00 
spi_exchange_receive: Prepadded read reg 0 seq
spi_transmit: len=6
  29 40 00 00 00 00 
** trgt -> host offset 0 bits 38: 73 47 01 ba e2
Debug: 280 53 bitbang.c:523 bitbang_swd_read_reg(): OK DP read reg 0 = 2ba01477
Debug: 281 53 bitbang.c:555 bitbang_swd_write_reg(): bitbang_swd_write_reg
** host -> trgt offset 0 bits  8: 81
spi_transmit: len=1
  81 
write ack force OK
** trgt -> host offset 0 bits  5: 13
** host -> trgt offset 5 bits 33: 13 03 00 00 00
  pad 2
spi_transmit: len=5
  C8 C0 00 00 00 
Debug: 282 53 bitbang.c:582 bitbang_swd_write_reg(): OK DP write reg 0 = 00000018
Debug: 283 53 bitbang.c:607 bitbang_swd_run_queue(): bitbang_swd_run_queue
spi_transmit: len=1
  00 
Debug: 284 54 bitbang.c:614 bitbang_swd_run_queue(): SWD queue return value: 00
Info : 285 54 adi_v5_swd.c:136 swd_connect(): SWD DPIDR 0x2ba01477
Debug: 286 54 arm_adi_v5.c:653 dap_dp_init(): nrf52.dap
Debug: 287 54 bitbang.c:555 bitbang_swd_write_reg(): bitbang_swd_write_reg
** host -> trgt offset 0 bits  8: b1
spi_transmit: len=1
  8D 
write ack force OK
** trgt -> host offset 0 bits  5: 13
** host -> trgt offset 5 bits 33: 13 00 00 00 80
  pad 2
spi_transmit: len=5
  C8 00 00 00 00 
Debug: 288 54 bitbang.c:582 bitbang_swd_write_reg(): OK DP write reg 8 = 00000000
Debug: 289 54 bitbang.c:496 bitbang_swd_read_reg(): bitbang_swd_read_reg
** host -> trgt offset 0 bits  8: 8d
spi_transmit: len=1
  B1 
spi_receive: len=5
  03 00 00 00 EF 
spi_exchange_receive: JTAG-to-SWD seq
spi_transmit: len=17
  FF FF FF FF FF FF FF 79 
  E7 FF FF FF FF FF FF FF 
  00 
spi_exchange_receive: Prepadded read reg 0 seq
spi_transmit: len=6
  29 40 00 00 00 00 
** trgt -> host offset 0 bits 38: 03 00 00 00 2f
Debug: 290 57 bitbang.c:523 bitbang_swd_read_reg(): OK DP read reg 4 = f0000000
Debug: 291 57 bitbang.c:607 bitbang_swd_run_queue(): bitbang_swd_run_queue
spi_transmit: len=1
  00 
Debug: 292 57 bitbang.c:614 bitbang_swd_run_queue(): SWD queue return value: 00
Debug: 293 57 bitbang.c:555 bitbang_swd_write_reg(): bitbang_swd_write_reg
** host -> trgt offset 0 bits  8: a9
spi_transmit: len=1
  95 
write ack force OK
** trgt -> host offset 0 bits  5: 13
** host -> trgt offset 5 bits 33: 13 04 00 00 2a
  pad 2
spi_transmit: len=5
  C8 20 00 00 54 
Debug: 294 58 bitbang.c:582 bitbang_swd_write_reg(): OK DP write reg 4 = 50000020
Debug: 295 58 bitbang.c:496 bitbang_swd_read_reg(): bitbang_swd_read_reg
** host -> trgt offset 0 bits  8: 8d
spi_transmit: len=1
  B1 
spi_receive: len=5
  03 00 00 00 EF 
spi_exchange_receive: JTAG-to-SWD seq
spi_transmit: len=17
  FF FF FF FF FF FF FF 79 
  E7 FF FF FF FF FF FF FF 
  00 
spi_exchange_receive: Prepadded read reg 0 seq
spi_transmit: len=6
  29 40 00 00 00 00 
** trgt -> host offset 0 bits 38: 03 00 00 00 2f
Debug: 296 60 bitbang.c:523 bitbang_swd_read_reg(): OK DP read reg 4 = f0000000
Debug: 297 60 bitbang.c:555 bitbang_swd_write_reg(): bitbang_swd_write_reg
** host -> trgt offset 0 bits  8: a9
spi_transmit: len=1
  95 
write ack force OK
** trgt -> host offset 0 bits  5: 13
** host -> trgt offset 5 bits 33: 13 00 00 00 0a
  pad 2
spi_transmit: len=5
  C8 00 00 00 50 
Debug: 298 61 bitbang.c:582 bitbang_swd_write_reg(): OK DP write reg 4 = 50000000
Debug: 299 61 arm_adi_v5.c:698 dap_dp_init(): DAP: wait CDBGPWRUPACK
Debug: 300 61 arm_adi_v5.h:501 dap_dp_poll_register(): DAP: poll 4, mask 0x20000000, value 0x20000000
Debug: 301 61 bitbang.c:496 bitbang_swd_read_reg(): bitbang_swd_read_reg
** host -> trgt offset 0 bits  8: 8d
spi_transmit: len=1
  B1 
spi_receive: len=5
  03 00 00 00 EF 
spi_exchange_receive: JTAG-to-SWD seq
spi_transmit: len=17
  FF FF FF FF FF FF FF 79 
  E7 FF FF FF FF FF FF FF 
  00 
spi_exchange_receive: Prepadded read reg 0 seq
spi_transmit: len=6
  29 40 00 00 00 00 
** trgt -> host offset 0 bits 38: 03 00 00 00 2f
Debug: 302 64 bitbang.c:523 bitbang_swd_read_reg(): OK DP read reg 4 = f0000000
Debug: 303 64 bitbang.c:607 bitbang_swd_run_queue(): bitbang_swd_run_queue
spi_transmit: len=1
  00 
Debug: 304 64 bitbang.c:614 bitbang_swd_run_queue(): SWD queue return value: 00
Debug: 305 64 arm_adi_v5.c:706 dap_dp_init(): DAP: wait CSYSPWRUPACK
Debug: 306 64 arm_adi_v5.h:501 dap_dp_poll_register(): DAP: poll 4, mask 0x80000000, value 0x80000000
Debug: 307 64 bitbang.c:496 bitbang_swd_read_reg(): bitbang_swd_read_reg
** host -> trgt offset 0 bits  8: 8d
spi_transmit: len=1
  B1 
spi_receive: len=5
  03 00 00 00 EF 
spi_exchange_receive: JTAG-to-SWD seq
spi_transmit: len=17
  FF FF FF FF FF FF FF 79 
  E7 FF FF FF FF FF FF FF 
  00 
spi_exchange_receive: Prepadded read reg 0 seq
spi_transmit: len=6
  29 40 00 00 00 00 
** trgt -> host offset 0 bits 38: 03 00 00 00 2f
Debug: 308 67 bitbang.c:523 bitbang_swd_read_reg(): OK DP read reg 4 = f0000000
Debug: 309 67 bitbang.c:607 bitbang_swd_run_queue(): bitbang_swd_run_queue
spi_transmit: len=1
  00 
Debug: 310 67 bitbang.c:614 bitbang_swd_run_queue(): SWD queue return value: 00
Debug: 311 67 bitbang.c:496 bitbang_swd_read_reg(): bitbang_swd_read_reg
** host -> trgt offset 0 bits  8: 8d
spi_transmit: len=1
  B1 
spi_receive: len=5
  03 00 00 00 EF 
spi_exchange_receive: JTAG-to-SWD seq
spi_transmit: len=17
  FF FF FF FF FF FF FF 79 
  E7 FF FF FF FF FF FF FF 
  00 
spi_exchange_receive: Prepadded read reg 0 seq
spi_transmit: len=6
  29 40 00 00 00 00 
** trgt -> host offset 0 bits 38: 03 00 00 00 2f
Debug: 312 69 bitbang.c:523 bitbang_swd_read_reg(): OK DP read reg 4 = f0000000
Debug: 313 69 bitbang.c:555 bitbang_swd_write_reg(): bitbang_swd_write_reg
** host -> trgt offset 0 bits  8: a9
spi_transmit: len=1
  95 
write ack force OK
** trgt -> host offset 0 bits  5: 13
** host -> trgt offset 5 bits 33: 13 00 00 00 2a
  pad 2
spi_transmit: len=5
  C8 00 00 00 54 
Debug: 314 70 bitbang.c:582 bitbang_swd_write_reg(): OK DP write reg 4 = 50000000
Debug: 315 70 bitbang.c:496 bitbang_swd_read_reg(): bitbang_swd_read_reg
** host -> trgt offset 0 bits  8: 8d
spi_transmit: len=1
  B1 
spi_receive: len=5
  03 08 00 00 FF 
spi_exchange_receive: JTAG-to-SWD seq
spi_transmit: len=17
  FF FF FF FF FF FF FF 79 
  E7 FF FF FF FF FF FF FF 
  00 
spi_exchange_receive: Prepadded read reg 0 seq
spi_transmit: len=6
  29 40 00 00 00 00 
** trgt -> host offset 0 bits 38: 03 08 00 00 3f
Debug: 316 73 bitbang.c:523 bitbang_swd_read_reg(): OK DP read reg 4 = f0000080
Debug: 317 73 bitbang.c:607 bitbang_swd_run_queue(): bitbang_swd_run_queue
spi_transmit: len=1
  00 
Debug: 318 73 bitbang.c:614 bitbang_swd_run_queue(): SWD queue return value: 00
Debug: 319 73 bitbang.c:555 bitbang_swd_write_reg(): bitbang_swd_write_reg
** host -> trgt offset 0 bits  8: b1
spi_transmit: len=1
  8D 
write ack force OK
** trgt -> host offset 0 bits  5: 13
** host -> trgt offset 5 bits 33: 13 1e 00 20 20
  pad 2
spi_transmit: len=5
  C8 78 00 04 04 
Debug: 320 74 bitbang.c:582 bitbang_swd_write_reg(): OK DP write reg 8 = 010000f0
Debug: 321 74 bitbang.c:496 bitbang_swd_read_reg(): bitbang_swd_read_reg
** host -> trgt offset 0 bits  8: 9f
spi_transmit: len=1
  F9 
spi_receive: len=5
  FF FF FF FF FF 
spi_exchange_receive: JTAG-to-SWD seq
spi_transmit: len=17
  FF FF FF FF FF FF FF 79 
  E7 FF FF FF FF FF FF FF 
  00 
spi_exchange_receive: Prepadded read reg 0 seq
spi_transmit: len=6
  29 40 00 00 00 00 
** trgt -> host offset 0 bits 38: ff ff ff ff 3f
Debug: 322 76 bitbang.c:523 bitbang_swd_read_reg(): JUNK AP read reg C = ffffffff
Debug: 323 76 bitbang.c:546 bitbang_swd_read_reg(): No valid acknowledge: ack=7
Debug: 324 76 bitbang.c:496 bitbang_swd_read_reg(): bitbang_swd_read_reg
Debug: 325 76 bitbang.c:500 bitbang_swd_read_reg(): Skip bitbang_swd_read_reg because queued_retval=7
Debug: 326 76 bitbang.c:607 bitbang_swd_run_queue(): bitbang_swd_run_queue
spi_transmit: len=1
  00 
Debug: 327 76 bitbang.c:614 bitbang_swd_run_queue(): SWD queue return value: 07
Debug: 328 76 bitbang.c:459 bitbang_swd_switch_seq(): bitbang_swd_switch_seq
Debug: 329 76 bitbang.c:467 bitbang_swd_switch_seq(): JTAG-to-SWD
** host -> trgt offset 0 bits 136: ff ff ff ff ff ff ff 9e e7 ff ff ff ff ff ff ff 00
spi_transmit: len=17
  FF FF FF FF FF FF FF 79 
  E7 FF FF FF FF FF FF FF 
  00 
Debug: 330 78 bitbang.c:496 bitbang_swd_read_reg(): bitbang_swd_read_reg
** host -> trgt offset 0 bits  8: a5
spi_transmit: len=1
  A5 
spi_receive: len=5
  73 47 01 BA E2 
spi_exchange_receive: JTAG-to-SWD seq
spi_transmit: len=17
  FF FF FF FF FF FF FF 79 
  E7 FF FF FF FF FF FF FF 
  00 
spi_exchange_receive: Prepadded read reg 0 seq
spi_transmit: len=6
  29 40 00 00 00 00 
** trgt -> host offset 0 bits 38: 73 47 01 ba e2
Debug: 331 81 bitbang.c:523 bitbang_swd_read_reg(): OK DP read reg 0 = 2ba01477
Debug: 332 81 bitbang.c:555 bitbang_swd_write_reg(): bitbang_swd_write_reg
** host -> trgt offset 0 bits  8: 81
spi_transmit: len=1
  81 
write ack force OK
** trgt -> host offset 0 bits  5: 13
** host -> trgt offset 5 bits 33: 13 03 00 00 00
  pad 2
spi_transmit: len=5
  C8 C0 00 00 00 
Debug: 333 81 bitbang.c:582 bitbang_swd_write_reg(): OK DP write reg 0 = 00000018
Debug: 334 81 bitbang.c:607 bitbang_swd_run_queue(): bitbang_swd_run_queue
spi_transmit: len=1
  00 
Debug: 335 81 bitbang.c:614 bitbang_swd_run_queue(): SWD queue return value: 00
Info : 336 81 adi_v5_swd.c:136 swd_connect(): SWD DPIDR 0x2ba01477
Debug: 337 81 arm_adi_v5.c:653 dap_dp_init(): nrf52.dap
Debug: 338 81 bitbang.c:555 bitbang_swd_write_reg(): bitbang_swd_write_reg
** host -> trgt offset 0 bits  8: b1
spi_transmit: len=1
  8D 
write ack force OK
** trgt -> host offset 0 bits  5: 13
** host -> trgt offset 5 bits 33: 13 00 00 00 80
  pad 2
spi_transmit: len=5
  C8 00 00 00 00 
Debug: 339 82 bitbang.c:582 bitbang_swd_write_reg(): OK DP write reg 8 = 00000000
Debug: 340 82 bitbang.c:496 bitbang_swd_read_reg(): bitbang_swd_read_reg
** host -> trgt offset 0 bits  8: 8d
spi_transmit: len=1
  B1 
spi_receive: len=5
  03 00 00 00 EF 
spi_exchange_receive: JTAG-to-SWD seq
spi_transmit: len=17
  FF FF FF FF FF FF FF 79 
  E7 FF FF FF FF FF FF FF 
  00 
spi_exchange_receive: Prepadded read reg 0 seq
spi_transmit: len=6
  29 40 00 00 00 00 
** trgt -> host offset 0 bits 38: 03 00 00 00 2f
Debug: 341 85 bitbang.c:523 bitbang_swd_read_reg(): OK DP read reg 4 = f0000000
Debug: 342 85 bitbang.c:607 bitbang_swd_run_queue(): bitbang_swd_run_queue
spi_transmit: len=1
  00 
Debug: 343 85 bitbang.c:614 bitbang_swd_run_queue(): SWD queue return value: 00
Debug: 344 85 bitbang.c:555 bitbang_swd_write_reg(): bitbang_swd_write_reg
** host -> trgt offset 0 bits  8: a9
spi_transmit: len=1
  95 
write ack force OK
** trgt -> host offset 0 bits  5: 13
** host -> trgt offset 5 bits 33: 13 04 00 00 2a
  pad 2
spi_transmit: len=5
  C8 20 00 00 54 
Debug: 345 86 bitbang.c:582 bitbang_swd_write_reg(): OK DP write reg 4 = 50000020
Debug: 346 86 bitbang.c:496 bitbang_swd_read_reg(): bitbang_swd_read_reg
** host -> trgt offset 0 bits  8: 8d
spi_transmit: len=1
  B1 
spi_receive: len=5
  03 00 00 00 EF 
spi_exchange_receive: JTAG-to-SWD seq
spi_transmit: len=17
  FF FF FF FF FF FF FF 79 
  E7 FF FF FF FF FF FF FF 
  00 
spi_exchange_receive: Prepadded read reg 0 seq
spi_transmit: len=6
  29 40 00 00 00 00 
** trgt -> host offset 0 bits 38: 03 00 00 00 2f
Debug: 347 88 bitbang.c:523 bitbang_swd_read_reg(): OK DP read reg 4 = f0000000
Debug: 348 88 bitbang.c:555 bitbang_swd_write_reg(): bitbang_swd_write_reg
** host -> trgt offset 0 bits  8: a9
spi_transmit: len=1
  95 
write ack force OK
** trgt -> host offset 0 bits  5: 13
** host -> trgt offset 5 bits 33: 13 00 00 00 0a
  pad 2
spi_transmit: len=5
  C8 00 00 00 50 
Debug: 349 89 bitbang.c:582 bitbang_swd_write_reg(): OK DP write reg 4 = 50000000
Debug: 350 89 arm_adi_v5.c:698 dap_dp_init(): DAP: wait CDBGPWRUPACK
Debug: 351 89 arm_adi_v5.h:501 dap_dp_poll_register(): DAP: poll 4, mask 0x20000000, value 0x20000000
Debug: 352 89 bitbang.c:496 bitbang_swd_read_reg(): bitbang_swd_read_reg
** host -> trgt offset 0 bits  8: 8d
spi_transmit: len=1
  B1 
spi_receive: len=5
  03 00 00 00 EF 
spi_exchange_receive: JTAG-to-SWD seq
spi_transmit: len=17
  FF FF FF FF FF FF FF 79 
  E7 FF FF FF FF FF FF FF 
  00 
spi_exchange_receive: Prepadded read reg 0 seq
spi_transmit: len=6
  29 40 00 00 00 00 
** trgt -> host offset 0 bits 38: 03 00 00 00 2f
Debug: 353 92 bitbang.c:523 bitbang_swd_read_reg(): OK DP read reg 4 = f0000000
Debug: 354 92 bitbang.c:607 bitbang_swd_run_queue(): bitbang_swd_run_queue
spi_transmit: len=1
  00 
Debug: 355 92 bitbang.c:614 bitbang_swd_run_queue(): SWD queue return value: 00
Debug: 356 92 arm_adi_v5.c:706 dap_dp_init(): DAP: wait CSYSPWRUPACK
Debug: 357 92 arm_adi_v5.h:501 dap_dp_poll_register(): DAP: poll 4, mask 0x80000000, value 0x80000000
Debug: 358 92 bitbang.c:496 bitbang_swd_read_reg(): bitbang_swd_read_reg
** host -> trgt offset 0 bits  8: 8d
spi_transmit: len=1
  B1 
spi_receive: len=5
  03 00 00 00 EF 
spi_exchange_receive: JTAG-to-SWD seq
spi_transmit: len=17
  FF FF FF FF FF FF FF 79 
  E7 FF FF FF FF FF FF FF 
  00 
spi_exchange_receive: Prepadded read reg 0 seq
spi_transmit: len=6
  29 40 00 00 00 00 
** trgt -> host offset 0 bits 38: 03 00 00 00 2f
Debug: 359 94 bitbang.c:523 bitbang_swd_read_reg(): OK DP read reg 4 = f0000000
Debug: 360 94 bitbang.c:607 bitbang_swd_run_queue(): bitbang_swd_run_queue
spi_transmit: len=1
  00 
Debug: 361 95 bitbang.c:614 bitbang_swd_run_queue(): SWD queue return value: 00
Debug: 362 95 bitbang.c:496 bitbang_swd_read_reg(): bitbang_swd_read_reg
** host -> trgt offset 0 bits  8: 8d
spi_transmit: len=1
  B1 
spi_receive: len=5
  03 00 00 00 EF 
spi_exchange_receive: JTAG-to-SWD seq
spi_transmit: len=17
  FF FF FF FF FF FF FF 79 
  E7 FF FF FF FF FF FF FF 
  00 
spi_exchange_receive: Prepadded read reg 0 seq
spi_transmit: len=6
  29 40 00 00 00 00 
** trgt -> host offset 0 bits 38: 03 00 00 00 2f
Debug: 363 97 bitbang.c:523 bitbang_swd_read_reg(): OK DP read reg 4 = f0000000
Debug: 364 97 bitbang.c:555 bitbang_swd_write_reg(): bitbang_swd_write_reg
** host -> trgt offset 0 bits  8: a9
spi_transmit: len=1
  95 
write ack force OK
** trgt -> host offset 0 bits  5: 13
** host -> trgt offset 5 bits 33: 13 00 00 00 2a
  pad 2
spi_transmit: len=5
  C8 00 00 00 54 
Debug: 365 98 bitbang.c:582 bitbang_swd_write_reg(): OK DP write reg 4 = 50000000
Debug: 366 98 bitbang.c:496 bitbang_swd_read_reg(): bitbang_swd_read_reg
** host -> trgt offset 0 bits  8: 8d
spi_transmit: len=1
  B1 
spi_receive: len=5
  03 08 00 00 FF 
spi_exchange_receive: JTAG-to-SWD seq
spi_transmit: len=17
  FF FF FF FF FF FF FF 79 
  E7 FF FF FF FF FF FF FF 
  00 
spi_exchange_receive: Prepadded read reg 0 seq
spi_transmit: len=6
  29 40 00 00 00 00 
** trgt -> host offset 0 bits 38: 03 08 00 00 3f
Debug: 367 101 bitbang.c:523 bitbang_swd_read_reg(): OK DP read reg 4 = f0000080
Debug: 368 101 bitbang.c:607 bitbang_swd_run_queue(): bitbang_swd_run_queue
spi_transmit: len=1
  00 
Debug: 369 101 bitbang.c:614 bitbang_swd_run_queue(): SWD queue return value: 00
Debug: 370 101 bitbang.c:555 bitbang_swd_write_reg(): bitbang_swd_write_reg
** host -> trgt offset 0 bits  8: b1
spi_transmit: len=1
  8D 
write ack force OK
** trgt -> host offset 0 bits  5: 13
** host -> trgt offset 5 bits 33: 13 1e 00 40 20
  pad 2
spi_transmit: len=5
  C8 78 00 02 04 
Debug: 371 101 bitbang.c:582 bitbang_swd_write_reg(): OK DP write reg 8 = 020000f0
Debug: 372 101 bitbang.c:496 bitbang_swd_read_reg(): bitbang_swd_read_reg
** host -> trgt offset 0 bits  8: 9f
spi_transmit: len=1
  F9 
spi_receive: len=5
  FF FF FF FF FF 
spi_exchange_receive: JTAG-to-SWD seq
spi_transmit: len=17
  FF FF FF FF FF FF FF 79 
  E7 FF FF FF FF FF FF FF 
  00 
spi_exchange_receive: Prepadded read reg 0 seq
spi_transmit: len=6
  29 40 00 00 00 00 
** trgt -> host offset 0 bits 38: ff ff ff ff 3f
Debug: 373 104 bitbang.c:523 bitbang_swd_read_reg(): JUNK AP read reg C = ffffffff
Debug: 374 104 bitbang.c:546 bitbang_swd_read_reg(): No valid acknowledge: ack=7
Debug: 375 104 bitbang.c:496 bitbang_swd_read_reg(): bitbang_swd_read_reg
Debug: 376 104 bitbang.c:500 bitbang_swd_read_reg(): Skip bitbang_swd_read_reg because queued_retval=7
Debug: 377 104 bitbang.c:607 bitbang_swd_run_queue(): bitbang_swd_run_queue
spi_transmit: len=1
  00 
Debug: 378 104 bitbang.c:614 bitbang_swd_run_queue(): SWD queue return value: 07
Debug: 379 104 bitbang.c:459 bitbang_swd_switch_seq(): bitbang_swd_switch_seq
Debug: 380 104 bitbang.c:467 bitbang_swd_switch_seq(): JTAG-to-SWD
** host -> trgt offset 0 bits 136: ff ff ff ff ff ff ff 9e e7 ff ff ff ff ff ff ff 00
spi_transmit: len=17
  FF FF FF FF FF FF FF 79 
  E7 FF FF FF FF FF FF FF 
  00 
Debug: 381 106 bitbang.c:496 bitbang_swd_read_reg(): bitbang_swd_read_reg
** host -> trgt offset 0 bits  8: a5
spi_transmit: len=1
  A5 
spi_receive: len=5
  73 47 01 BA E2 
spi_exchange_receive: JTAG-to-SWD seq
spi_transmit: len=17
  FF FF FF FF FF FF FF 79 
  E7 FF FF FF FF FF FF FF 
  00 
spi_exchange_receive: Prepadded read reg 0 seq
spi_transmit: len=6
  29 40 00 00 00 00 
** trgt -> host offset 0 bits 38: 73 47 01 ba e2
Debug: 382 108 bitbang.c:523 bitbang_swd_read_reg(): OK DP read reg 0 = 2ba01477
Debug: 383 108 bitbang.c:555 bitbang_swd_write_reg(): bitbang_swd_write_reg
** host -> trgt offset 0 bits  8: 81
spi_transmit: len=1
  81 
write ack force OK
** trgt -> host offset 0 bits  5: 13
** host -> trgt offset 5 bits 33: 13 03 00 00 00
  pad 2
spi_transmit: len=5
  C8 C0 00 00 00 
Debug: 384 109 bitbang.c:582 bitbang_swd_write_reg(): OK DP write reg 0 = 00000018
Debug: 385 109 bitbang.c:607 bitbang_swd_run_queue(): bitbang_swd_run_queue
spi_transmit: len=1
  00 
Debug: 386 109 bitbang.c:614 bitbang_swd_run_queue(): SWD queue return value: 00
Info : 387 109 adi_v5_swd.c:136 swd_connect(): SWD DPIDR 0x2ba01477
Debug: 388 109 arm_adi_v5.c:653 dap_dp_init(): nrf52.dap
Debug: 389 109 bitbang.c:555 bitbang_swd_write_reg(): bitbang_swd_write_reg
** host -> trgt offset 0 bits  8: b1
spi_transmit: len=1
  8D 
write ack force OK
** trgt -> host offset 0 bits  5: 13
** host -> trgt offset 5 bits 33: 13 00 00 00 80
  pad 2
spi_transmit: len=5
  C8 00 00 00 00 
Debug: 390 110 bitbang.c:582 bitbang_swd_write_reg(): OK DP write reg 8 = 00000000
Debug: 391 110 bitbang.c:496 bitbang_swd_read_reg(): bitbang_swd_read_reg
** host -> trgt offset 0 bits  8: 8d
spi_transmit: len=1
  B1 
spi_receive: len=5
  03 00 00 00 EF 
spi_exchange_receive: JTAG-to-SWD seq
spi_transmit: len=17
  FF FF FF FF FF FF FF 79 
  E7 FF FF FF FF FF FF FF 
  00 
spi_exchange_receive: Prepadded read reg 0 seq
spi_transmit: len=6
  29 40 00 00 00 00 
** trgt -> host offset 0 bits 38: 03 00 00 00 2f
Debug: 392 113 bitbang.c:523 bitbang_swd_read_reg(): OK DP read reg 4 = f0000000
Debug: 393 113 bitbang.c:607 bitbang_swd_run_queue(): bitbang_swd_run_queue
spi_transmit: len=1
  00 
Debug: 394 113 bitbang.c:614 bitbang_swd_run_queue(): SWD queue return value: 00
Debug: 395 113 bitbang.c:555 bitbang_swd_write_reg(): bitbang_swd_write_reg
** host -> trgt offset 0 bits  8: a9
spi_transmit: len=1
  95 
write ack force OK
** trgt -> host offset 0 bits  5: 13
** host -> trgt offset 5 bits 33: 13 04 00 00 2a
  pad 2
spi_transmit: len=5
  C8 20 00 00 54 
Debug: 396 113 bitbang.c:582 bitbang_swd_write_reg(): OK DP write reg 4 = 50000020
Debug: 397 113 bitbang.c:496 bitbang_swd_read_reg(): bitbang_swd_read_reg
** host -> trgt offset 0 bits  8: 8d
spi_transmit: len=1
  B1 
spi_receive: len=5
  03 00 00 00 EF 
spi_exchange_receive: JTAG-to-SWD seq
spi_transmit: len=17
  FF FF FF FF FF FF FF 79 
  E7 FF FF FF FF FF FF FF 
  00 
spi_exchange_receive: Prepadded read reg 0 seq
spi_transmit: len=6
  29 40 00 00 00 00 
** trgt -> host offset 0 bits 38: 03 00 00 00 2f
Debug: 398 116 bitbang.c:523 bitbang_swd_read_reg(): OK DP read reg 4 = f0000000
Debug: 399 116 bitbang.c:555 bitbang_swd_write_reg(): bitbang_swd_write_reg
** host -> trgt offset 0 bits  8: a9
spi_transmit: len=1
  95 
write ack force OK
** trgt -> host offset 0 bits  5: 13
** host -> trgt offset 5 bits 33: 13 00 00 00 0a
  pad 2
spi_transmit: len=5
  C8 00 00 00 50 
Debug: 400 117 bitbang.c:582 bitbang_swd_write_reg(): OK DP write reg 4 = 50000000
Debug: 401 117 arm_adi_v5.c:698 dap_dp_init(): DAP: wait CDBGPWRUPACK
Debug: 402 117 arm_adi_v5.h:501 dap_dp_poll_register(): DAP: poll 4, mask 0x20000000, value 0x20000000
Debug: 403 117 bitbang.c:496 bitbang_swd_read_reg(): bitbang_swd_read_reg
** host -> trgt offset 0 bits  8: 8d
spi_transmit: len=1
  B1 
spi_receive: len=5
  03 00 00 00 EF 
spi_exchange_receive: JTAG-to-SWD seq
spi_transmit: len=17
  FF FF FF FF FF FF FF 79 
  E7 FF FF FF FF FF FF FF 
  00 
spi_exchange_receive: Prepadded read reg 0 seq
spi_transmit: len=6
  29 40 00 00 00 00 
** trgt -> host offset 0 bits 38: 03 00 00 00 2f
Debug: 404 119 bitbang.c:523 bitbang_swd_read_reg(): OK DP read reg 4 = f0000000
Debug: 405 119 bitbang.c:607 bitbang_swd_run_queue(): bitbang_swd_run_queue
spi_transmit: len=1
  00 
Debug: 406 120 bitbang.c:614 bitbang_swd_run_queue(): SWD queue return value: 00
Debug: 407 120 arm_adi_v5.c:706 dap_dp_init(): DAP: wait CSYSPWRUPACK
Debug: 408 120 arm_adi_v5.h:501 dap_dp_poll_register(): DAP: poll 4, mask 0x80000000, value 0x80000000
Debug: 409 120 bitbang.c:496 bitbang_swd_read_reg(): bitbang_swd_read_reg
** host -> trgt offset 0 bits  8: 8d
spi_transmit: len=1
  B1 
spi_receive: len=5
  03 00 00 00 EF 
spi_exchange_receive: JTAG-to-SWD seq
spi_transmit: len=17
  FF FF FF FF FF FF FF 79 
  E7 FF FF FF FF FF FF FF 
  00 
spi_exchange_receive: Prepadded read reg 0 seq
spi_transmit: len=6
  29 40 00 00 00 00 
** trgt -> host offset 0 bits 38: 03 00 00 00 2f
Debug: 410 122 bitbang.c:523 bitbang_swd_read_reg(): OK DP read reg 4 = f0000000
Debug: 411 122 bitbang.c:607 bitbang_swd_run_queue(): bitbang_swd_run_queue
spi_transmit: len=1
  00 
Debug: 412 122 bitbang.c:614 bitbang_swd_run_queue(): SWD queue return value: 00
Debug: 413 122 bitbang.c:496 bitbang_swd_read_reg(): bitbang_swd_read_reg
** host -> trgt offset 0 bits  8: 8d
spi_transmit: len=1
  B1 
spi_receive: len=5
  03 00 00 00 EF 
spi_exchange_receive: JTAG-to-SWD seq
spi_transmit: len=17
  FF FF FF FF FF FF FF 79 
  E7 FF FF FF FF FF FF FF 
  00 
spi_exchange_receive: Prepadded read reg 0 seq
spi_transmit: len=6
  29 40 00 00 00 00 
** trgt -> host offset 0 bits 38: 03 00 00 00 2f
Debug: 414 125 bitbang.c:523 bitbang_swd_read_reg(): OK DP read reg 4 = f0000000
Debug: 415 125 bitbang.c:555 bitbang_swd_write_reg(): bitbang_swd_write_reg
** host -> trgt offset 0 bits  8: a9
spi_transmit: len=1
  95 
write ack force OK
** trgt -> host offset 0 bits  5: 13
** host -> trgt offset 5 bits 33: 13 00 00 00 2a
  pad 2
spi_transmit: len=5
  C8 00 00 00 54 
Debug: 416 126 bitbang.c:582 bitbang_swd_write_reg(): OK DP write reg 4 = 50000000
Debug: 417 126 bitbang.c:496 bitbang_swd_read_reg(): bitbang_swd_read_reg
** host -> trgt offset 0 bits  8: 8d
spi_transmit: len=1
  B1 
spi_receive: len=5
  03 08 00 00 FF 
spi_exchange_receive: JTAG-to-SWD seq
spi_transmit: len=17
  FF FF FF FF FF FF FF 79 
  E7 FF FF FF FF FF FF FF 
  00 
spi_exchange_receive: Prepadded read reg 0 seq
spi_transmit: len=6
  29 40 00 00 00 00 
** trgt -> host offset 0 bits 38: 03 08 00 00 3f
Debug: 418 128 bitbang.c:523 bitbang_swd_read_reg(): OK DP read reg 4 = f0000080
Debug: 419 128 bitbang.c:607 bitbang_swd_run_queue(): bitbang_swd_run_queue
spi_transmit: len=1
  00 
