+ sudo /home/pi/openocd-spi/src/openocd -d4 -s /home/pi/openocd-spi/tcl -f scripts/nrf52-pi/swd-pi.ocd -f scripts/nrf52-pi/flash-unprotect.ocd
Open On-Chip Debugger 0.10.0+dev-01004-g8f19391d (2020-01-14-00:35)
Licensed under GNU GPL v2
For bug reports, read
	http://openocd.org/doc/doxygen/bugs.html
User : 13 6 options.c:63 configuration_output_handler(): debug_level: 4
User : 14 6 options.c:63 configuration_output_handler(): 
Debug: 15 6 configuration.c:42 add_script_search_dir(): adding /home/pi/openocd-spi/tcl
Debug: 16 7 options.c:187 add_default_dirs(): bindir=/usr/local/bin
Debug: 17 7 options.c:188 add_default_dirs(): pkgdatadir=/usr/local/share/openocd
Debug: 18 7 options.c:189 add_default_dirs(): exepath=/home/pi/openocd-spi/src
Debug: 19 7 options.c:190 add_default_dirs(): bin2data=../share/openocd
Debug: 20 7 configuration.c:42 add_script_search_dir(): adding /root/.openocd
Debug: 21 7 configuration.c:42 add_script_search_dir(): adding /home/pi/openocd-spi/src/../share/openocd/site
Debug: 22 7 configuration.c:42 add_script_search_dir(): adding /home/pi/openocd-spi/src/../share/openocd/scripts
Debug: 23 7 configuration.c:97 find_file(): found scripts/nrf52-pi/swd-pi.ocd
Debug: 24 7 command.c:143 script_debug(): command - interface interface bcm2835gpio
Debug: 26 7 command.c:354 register_command_handler(): registering 'bcm2835gpio_jtag_nums'...
Debug: 27 7 command.c:354 register_command_handler(): registering 'bcm2835gpio_tck_num'...
Debug: 28 7 command.c:354 register_command_handler(): registering 'bcm2835gpio_tms_num'...
Debug: 29 7 command.c:354 register_command_handler(): registering 'bcm2835gpio_tdo_num'...
Debug: 30 7 command.c:354 register_command_handler(): registering 'bcm2835gpio_tdi_num'...
Debug: 31 7 command.c:354 register_command_handler(): registering 'bcm2835gpio_swd_nums'...
Debug: 32 8 command.c:354 register_command_handler(): registering 'bcm2835gpio_swclk_num'...
Debug: 33 8 command.c:354 register_command_handler(): registering 'bcm2835gpio_swdio_num'...
Debug: 34 8 command.c:354 register_command_handler(): registering 'bcm2835gpio_srst_num'...
Debug: 35 8 command.c:354 register_command_handler(): registering 'bcm2835gpio_trst_num'...
Debug: 36 8 command.c:354 register_command_handler(): registering 'bcm2835gpio_speed_coeffs'...
Debug: 37 8 command.c:354 register_command_handler(): registering 'bcm2835gpio_peripheral_base'...
Debug: 38 8 command.c:143 script_debug(): command - bcm2835gpio_peripheral_base bcm2835gpio_peripheral_base 0xFE000000
Debug: 40 8 command.c:143 script_debug(): command - bcm2835gpio_speed_coeffs bcm2835gpio_speed_coeffs 236181 60
Debug: 42 8 command.c:143 script_debug(): command - bcm2835gpio_swd_nums bcm2835gpio_swd_nums 20 21
Debug: 44 8 command.c:143 script_debug(): command - bcm2835gpio_srst_num bcm2835gpio_srst_num 18
Debug: 46 8 command.c:143 script_debug(): command - transport transport select swd
Debug: 47 8 command.c:354 register_command_handler(): registering 'swd'...
Debug: 48 8 bitbang.c:402 bitbang_swd_init(): bitbang_swd_init
Debug: 49 8 configuration.c:97 find_file(): found /home/pi/openocd-spi/tcl/target/nrf52.cfg
Debug: 50 8 configuration.c:97 find_file(): found /home/pi/openocd-spi/tcl/target/swj-dp.tcl
Debug: 51 9 command.c:143 script_debug(): command - transport transport select
Debug: 52 9 command.c:143 script_debug(): command - transport transport select
Debug: 53 9 command.c:143 script_debug(): command - transport transport select
Debug: 54 9 command.c:143 script_debug(): command - transport transport select
Debug: 55 9 command.c:143 script_debug(): command - swd swd newdap nrf52 cpu -expected-id 0x2ba01477
Debug: 56 9 tcl.c:567 jim_newtap_cmd(): Creating New Tap, Chip: nrf52, Tap: cpu, Dotted: nrf52.cpu, 2 params
Debug: 57 9 core.c:1375 jtag_tap_init(): Created Tap: nrf52.cpu @ abs position 0, irlen 0, capture: 0x0 mask: 0x0
Debug: 58 9 command.c:143 script_debug(): command - dap dap create nrf52.dap -chain-position nrf52.cpu
Debug: 59 9 command.c:354 register_command_handler(): registering 'nrf52.dap'...
Debug: 60 9 command.c:354 register_command_handler(): registering 'nrf52.dap'...
Debug: 61 10 command.c:354 register_command_handler(): registering 'nrf52.dap'...
Debug: 62 10 command.c:354 register_command_handler(): registering 'nrf52.dap'...
Debug: 63 10 command.c:354 register_command_handler(): registering 'nrf52.dap'...
Debug: 64 10 command.c:354 register_command_handler(): registering 'nrf52.dap'...
Debug: 65 10 command.c:354 register_command_handler(): registering 'nrf52.dap'...
Debug: 66 10 command.c:354 register_command_handler(): registering 'nrf52.dap'...
Debug: 67 10 command.c:354 register_command_handler(): registering 'nrf52.dap'...
Debug: 68 10 command.c:143 script_debug(): command - target target create nrf52.cpu cortex_m -dap nrf52.dap
Debug: 69 10 command.c:354 register_command_handler(): registering 'arm'...
Debug: 70 10 command.c:354 register_command_handler(): registering 'arm'...
Debug: 71 10 command.c:354 register_command_handler(): registering 'arm'...
Debug: 72 10 command.c:354 register_command_handler(): registering 'arm'...
Debug: 73 10 command.c:354 register_command_handler(): registering 'arm'...
Debug: 74 10 command.c:354 register_command_handler(): registering 'arm'...
Debug: 75 10 command.c:354 register_command_handler(): registering 'arm'...
Debug: 76 10 command.c:354 register_command_handler(): registering 'arm'...
Debug: 77 10 command.c:354 register_command_handler(): registering 'arm'...
Debug: 78 10 command.c:354 register_command_handler(): registering 'tpiu'...
Debug: 79 10 command.c:354 register_command_handler(): registering 'itm'...
Debug: 80 10 command.c:354 register_command_handler(): registering 'itm'...
Debug: 81 10 command.c:354 register_command_handler(): registering 'cortex_m'...
Debug: 82 10 command.c:354 register_command_handler(): registering 'cortex_m'...
Debug: 83 10 command.c:354 register_command_handler(): registering 'cortex_m'...
Debug: 84 11 command.c:354 register_command_handler(): registering 'nrf52.cpu'...
Debug: 85 11 command.c:354 register_command_handler(): registering 'nrf52.cpu'...
Debug: 86 11 command.c:354 register_command_handler(): registering 'nrf52.cpu'...
Debug: 87 11 command.c:354 register_command_handler(): registering 'nrf52.cpu'...
Debug: 88 11 command.c:354 register_command_handler(): registering 'nrf52.cpu'...
Debug: 89 11 command.c:354 register_command_handler(): registering 'nrf52.cpu'...
Debug: 90 11 command.c:354 register_command_handler(): registering 'nrf52.cpu'...
Debug: 91 11 command.c:354 register_command_handler(): registering 'nrf52.cpu'...
Debug: 92 11 command.c:354 register_command_handler(): registering 'nrf52.cpu'...
Debug: 93 11 command.c:354 register_command_handler(): registering 'nrf52.cpu'...
Debug: 94 11 command.c:354 register_command_handler(): registering 'nrf52.cpu'...
Debug: 95 11 command.c:354 register_command_handler(): registering 'nrf52.cpu'...
Debug: 96 11 command.c:354 register_command_handler(): registering 'nrf52.cpu'...
Debug: 97 11 command.c:354 register_command_handler(): registering 'nrf52.cpu'...
Debug: 98 11 command.c:354 register_command_handler(): registering 'nrf52.cpu'...
Debug: 99 11 command.c:354 register_command_handler(): registering 'nrf52.cpu'...
Debug: 100 11 command.c:354 register_command_handler(): registering 'nrf52.cpu'...
Debug: 101 11 command.c:354 register_command_handler(): registering 'nrf52.cpu'...
Debug: 102 11 command.c:354 register_command_handler(): registering 'nrf52.cpu'...
Debug: 103 11 command.c:354 register_command_handler(): registering 'nrf52.cpu'...
Debug: 104 11 command.c:354 register_command_handler(): registering 'nrf52.cpu'...
Debug: 105 11 command.c:354 register_command_handler(): registering 'nrf52.cpu'...
Debug: 106 11 command.c:354 register_command_handler(): registering 'nrf52.cpu'...
Debug: 107 11 command.c:354 register_command_handler(): registering 'nrf52.cpu'...
Debug: 108 11 command.c:354 register_command_handler(): registering 'nrf52.cpu'...
Debug: 109 11 command.c:354 register_command_handler(): registering 'nrf52.cpu'...
Debug: 110 11 command.c:354 register_command_handler(): registering 'nrf52.cpu'...
Debug: 111 11 command.c:354 register_command_handler(): registering 'nrf52.cpu'...
Debug: 112 11 command.c:354 register_command_handler(): registering 'nrf52.cpu'...
Debug: 113 11 command.c:354 register_command_handler(): registering 'nrf52.cpu'...
Debug: 114 11 command.c:354 register_command_handler(): registering 'nrf52.cpu'...
Debug: 115 12 command.c:354 register_command_handler(): registering 'nrf52.cpu'...
Debug: 116 12 command.c:354 register_command_handler(): registering 'nrf52.cpu'...
Debug: 117 12 command.c:354 register_command_handler(): registering 'nrf52.cpu'...
Debug: 118 12 command.c:354 register_command_handler(): registering 'nrf52.cpu'...
Debug: 119 12 command.c:354 register_command_handler(): registering 'nrf52.cpu'...
Debug: 120 12 command.c:354 register_command_handler(): registering 'nrf52.cpu'...
Debug: 121 12 command.c:354 register_command_handler(): registering 'nrf52.cpu'...
Debug: 122 12 command.c:354 register_command_handler(): registering 'nrf52.cpu'...
Debug: 123 12 command.c:354 register_command_handler(): registering 'nrf52.cpu'...
Debug: 124 12 command.c:354 register_command_handler(): registering 'nrf52.cpu'...
Debug: 125 12 command.c:354 register_command_handler(): registering 'nrf52.cpu'...
Debug: 126 12 command.c:143 script_debug(): command - adapter_khz adapter_khz 1000
Debug: 128 12 core.c:1707 jtag_config_khz(): handle jtag khz
Debug: 129 12 core.c:1670 adapter_khz_to_speed(): convert khz to interface specific speed value
Debug: 130 12 core.c:1670 adapter_khz_to_speed(): convert khz to interface specific speed value
Debug: 131 12 command.c:143 script_debug(): command - nrf52.cpu nrf52.cpu configure -work-area-phys 0x20000000 -work-area-size 0x4000 -work-area-backup 0
Debug: 132 12 target.c:1961 target_free_all_working_areas_restore(): freeing all working areas
Debug: 133 12 target.c:1961 target_free_all_working_areas_restore(): freeing all working areas
Debug: 134 12 target.c:1961 target_free_all_working_areas_restore(): freeing all working areas
Debug: 135 12 command.c:143 script_debug(): command - transport transport select
Debug: 136 12 command.c:143 script_debug(): command - cortex_m cortex_m reset_config sysresetreq
Debug: 138 12 command.c:143 script_debug(): command - flash flash bank nrf52.flash nrf5 0x00000000 0 1 1 nrf52.cpu
Debug: 140 12 command.c:354 register_command_handler(): registering 'nrf5'...
Debug: 141 12 command.c:354 register_command_handler(): registering 'nrf5'...
Debug: 142 12 command.c:354 register_command_handler(): registering 'nrf51'...
Debug: 143 12 command.c:354 register_command_handler(): registering 'nrf51'...
Debug: 144 13 tcl.c:1156 handle_flash_bank_command(): 'nrf5' driver usage field missing
Debug: 145 13 command.c:143 script_debug(): command - flash flash bank nrf52.uicr nrf5 0x10001000 0 1 1 nrf52.cpu
Debug: 147 13 command.c:376 register_command(): command 'nrf5' is already registered in '<global>' context
Debug: 148 13 command.c:376 register_command(): command 'mass_erase' is already registered in 'nrf5' context
Debug: 149 13 command.c:376 register_command(): command 'info' is already registered in 'nrf5' context
Debug: 150 13 command.c:376 register_command(): command 'nrf51' is already registered in '<global>' context
Debug: 151 13 command.c:376 register_command(): command 'mass_erase' is already registered in 'nrf51' context
Debug: 152 13 command.c:376 register_command(): command 'info' is already registered in 'nrf51' context
Debug: 153 13 tcl.c:1156 handle_flash_bank_command(): 'nrf5' driver usage field missing
Debug: 154 13 configuration.c:97 find_file(): found scripts/nrf52-pi/flash-unprotect.ocd
Debug: 155 13 command.c:143 script_debug(): command - gdb_flash_program gdb_flash_program enable
Debug: 157 13 command.c:143 script_debug(): command - gdb_breakpoint_override gdb_breakpoint_override hard
User : 159 13 gdb_server.c:3669 handle_gdb_breakpoint_override_command(): force hard breakpoints
Debug: 160 13 command.c:143 script_debug(): command - init init
Debug: 162 13 command.c:143 script_debug(): command - target target init
Debug: 164 13 command.c:143 script_debug(): command - target target names
Debug: 165 14 command.c:143 script_debug(): command - nrf52.cpu nrf52.cpu cget -event gdb-flash-erase-start
Debug: 166 14 command.c:143 script_debug(): command - nrf52.cpu nrf52.cpu configure -event gdb-flash-erase-start reset init
Debug: 167 14 command.c:143 script_debug(): command - nrf52.cpu nrf52.cpu cget -event gdb-flash-write-end
Debug: 168 14 command.c:143 script_debug(): command - nrf52.cpu nrf52.cpu configure -event gdb-flash-write-end reset halt
Debug: 169 14 command.c:143 script_debug(): command - nrf52.cpu nrf52.cpu cget -event gdb-attach
Debug: 170 14 command.c:143 script_debug(): command - nrf52.cpu nrf52.cpu configure -event gdb-attach halt
Debug: 171 14 target.c:1423 handle_target_init_command(): Initializing targets...
Debug: 172 14 semihosting_common.c:97 semihosting_common_init():  
Debug: 173 14 command.c:354 register_command_handler(): registering 'target_request'...
Debug: 174 14 command.c:354 register_command_handler(): registering 'trace'...
Debug: 175 14 command.c:354 register_command_handler(): registering 'trace'...
Debug: 176 14 command.c:354 register_command_handler(): registering 'fast_load_image'...
Debug: 177 14 command.c:354 register_command_handler(): registering 'fast_load'...
Debug: 178 14 command.c:354 register_command_handler(): registering 'profile'...
Debug: 179 14 command.c:354 register_command_handler(): registering 'virt2phys'...
Debug: 180 14 command.c:354 register_command_handler(): registering 'reg'...
Debug: 181 14 command.c:354 register_command_handler(): registering 'poll'...
Debug: 182 15 command.c:354 register_command_handler(): registering 'wait_halt'...
Debug: 183 15 command.c:354 register_command_handler(): registering 'halt'...
Debug: 184 15 command.c:354 register_command_handler(): registering 'resume'...
Debug: 185 15 command.c:354 register_command_handler(): registering 'reset'...
Debug: 186 15 command.c:354 register_command_handler(): registering 'soft_reset_halt'...
Debug: 187 15 command.c:354 register_command_handler(): registering 'step'...
Debug: 188 15 command.c:354 register_command_handler(): registering 'mdd'...
Debug: 189 15 command.c:354 register_command_handler(): registering 'mdw'...
Debug: 190 15 command.c:354 register_command_handler(): registering 'mdh'...
Debug: 191 15 command.c:354 register_command_handler(): registering 'mdb'...
Debug: 192 15 command.c:354 register_command_handler(): registering 'mwd'...
Debug: 193 15 command.c:354 register_command_handler(): registering 'mww'...
Debug: 194 15 command.c:354 register_command_handler(): registering 'mwh'...
Debug: 195 15 command.c:354 register_command_handler(): registering 'mwb'...
Debug: 196 15 command.c:354 register_command_handler(): registering 'bp'...
Debug: 197 15 command.c:354 register_command_handler(): registering 'rbp'...
Debug: 198 15 command.c:354 register_command_handler(): registering 'wp'...
Debug: 199 15 command.c:354 register_command_handler(): registering 'rwp'...
Debug: 200 15 command.c:354 register_command_handler(): registering 'load_image'...
Debug: 201 15 command.c:354 register_command_handler(): registering 'dump_image'...
Debug: 202 15 command.c:354 register_command_handler(): registering 'verify_image_checksum'...
Debug: 203 15 command.c:354 register_command_handler(): registering 'verify_image'...
Debug: 204 15 command.c:354 register_command_handler(): registering 'test_image'...
Debug: 205 15 command.c:354 register_command_handler(): registering 'reset_nag'...
Debug: 206 15 command.c:354 register_command_handler(): registering 'ps'...
Debug: 207 15 command.c:354 register_command_handler(): registering 'test_mem_access'...
Info : 208 16 bcm2835gpio.c:450 bcm2835gpio_init(): BCM2835 GPIO JTAG/SWD bitbang driver
Info : 209 16 bcm2835gpio.c:458 bcm2835gpio_init(): SWD only mode enabled (specify tck, tms, tdi and tdo gpios to add JTAG mode)
Debug: 210 16 bcm2835gpio.c:525 bcm2835gpio_init(): saved pinmux settings: tck 0 tms 0 tdi 0 tdo 0 trst 0 srst 1
Debug: 211 16 bitbang.c:484 bitbang_switch_to_swd(): bitbang_switch_to_swd
** host -> trgt offset 0 bits 136: ff ff ff ff ff ff ff 9e e7 ff ff ff ff ff ff ff 00
spi_init spi mode: 80
bits per word: 8
max speed: 1953000 Hz (1953 KHz)
spi_transmit: len=17
  FF FF FF FF FF FF FF 79 
  E7 FF FF FF FF FF FF FF 
  00 
Debug: 212 17 core.c:1670 adapter_khz_to_speed(): convert khz to interface specific speed value
Debug: 213 17 core.c:1674 adapter_khz_to_speed(): have interface set up
Debug: 214 17 core.c:1670 adapter_khz_to_speed(): convert khz to interface specific speed value
Debug: 215 17 core.c:1674 adapter_khz_to_speed(): have interface set up
Info : 216 17 core.c:1452 adapter_init(): clock speed 1000 kHz
Debug: 217 17 openocd.c:141 handle_init_command(): Debug Adapter init complete
Debug: 218 17 command.c:143 script_debug(): command - transport transport init
Debug: 220 17 transport.c:239 handle_transport_init(): handle_transport_init
Debug: 221 17 command.c:143 script_debug(): command - dap dap init
Debug: 223 17 arm_dap.c:106 dap_init_all(): Initializing all DAPs ...
Debug: 224 17 bitbang.c:459 bitbang_swd_switch_seq(): bitbang_swd_switch_seq
Debug: 225 17 bitbang.c:467 bitbang_swd_switch_seq(): JTAG-to-SWD
** host -> trgt offset 0 bits 136: ff ff ff ff ff ff ff 9e e7 ff ff ff ff ff ff ff 00
spi_transmit: len=17
  FF FF FF FF FF FF FF 79 
  E7 FF FF FF FF FF FF FF 
  00 
Debug: 226 18 bitbang.c:496 bitbang_swd_read_reg(): bitbang_swd_read_reg
** host -> trgt offset 0 bits  8: a5
spi_transmit: len=1
  A5 
spi_receive: len=5
  73 47 01 BA E2 
spi_exchange: JTAG-to-SWD seq
spi_transmit: len=17
  FF FF FF FF FF FF FF 79 
  E7 FF FF FF FF FF FF FF 
  00 
spi_exchange: Prepadded read reg 0 seq
spi_transmit: len=6
  29 40 00 00 00 00 
** trgt -> host offset 0 bits 38: 73 47 01 ba e2
Debug: 227 20 bitbang.c:523 bitbang_swd_read_reg(): OK DP read reg 0 = 2ba01477
Debug: 228 20 bitbang.c:555 bitbang_swd_write_reg(): bitbang_swd_write_reg
** host -> trgt offset 0 bits  8: 81
spi_transmit: len=1
  81 
spi_receive: len=1
  F3 
spi_exchange: JTAG-to-SWD seq
spi_transmit: len=17
  FF FF FF FF FF FF FF 79 
  E7 FF FF FF FF FF FF FF 
  00 
spi_exchange: Prepadded read reg 0 seq
spi_transmit: len=6
  29 40 00 00 00 00 
** trgt -> host offset 0 bits  5: d3
** host -> trgt offset 5 bits 33: d3 03 00 00 80
spi_transmit: len=4
  78 00 00 00 
Debug: 229 22 bitbang.c:582 bitbang_swd_write_reg(): OK DP write reg 0 = 0000001e
Debug: 230 22 bitbang.c:607 bitbang_swd_run_queue(): bitbang_swd_run_queue
spi_transmit: len=1
  00 
Debug: 231 22 bitbang.c:614 bitbang_swd_run_queue(): SWD queue return value: 00
Info : 232 22 adi_v5_swd.c:136 swd_connect(): SWD DPIDR 0x2ba01477
Debug: 233 22 arm_adi_v5.c:653 dap_dp_init(): nrf52.dap
Debug: 234 22 bitbang.c:555 bitbang_swd_write_reg(): bitbang_swd_write_reg
** host -> trgt offset 0 bits  8: b1
spi_transmit: len=1
  8D 
spi_receive: len=1
  FF 
spi_exchange: JTAG-to-SWD seq
spi_transmit: len=17
  FF FF FF FF FF FF FF 79 
  E7 FF FF FF FF FF FF FF 
  00 
spi_exchange: Prepadded read reg 0 seq
spi_transmit: len=6
  29 40 00 00 00 00 
** trgt -> host offset 0 bits  5: 1f
** host -> trgt offset 5 bits 33: 1f 00 00 00 80
spi_transmit: len=4
  00 00 00 00 
Debug: 235 24 bitbang.c:582 bitbang_swd_write_reg(): JUNK DP write reg 8 = 00000000
Debug: 236 24 bitbang.c:598 bitbang_swd_write_reg(): No valid acknowledge: ack=7
Debug: 237 24 bitbang.c:496 bitbang_swd_read_reg(): bitbang_swd_read_reg
Debug: 238 24 bitbang.c:500 bitbang_swd_read_reg(): Skip bitbang_swd_read_reg because queued_retval=7
Debug: 239 24 bitbang.c:607 bitbang_swd_run_queue(): bitbang_swd_run_queue
spi_transmit: len=1
  00 
Debug: 240 24 bitbang.c:614 bitbang_swd_run_queue(): SWD queue return value: 07
Debug: 241 24 bitbang.c:459 bitbang_swd_switch_seq(): bitbang_swd_switch_seq
Debug: 242 24 bitbang.c:467 bitbang_swd_switch_seq(): JTAG-to-SWD
** host -> trgt offset 0 bits 136: ff ff ff ff ff ff ff 9e e7 ff ff ff ff ff ff ff 00
spi_transmit: len=17
  FF FF FF FF FF FF FF 79 
  E7 FF FF FF FF FF FF FF 
  00 
Debug: 243 25 bitbang.c:496 bitbang_swd_read_reg(): bitbang_swd_read_reg
** host -> trgt offset 0 bits  8: a5
spi_transmit: len=1
  A5 
spi_receive: len=5
  73 47 01 BA E2 
spi_exchange: JTAG-to-SWD seq
spi_transmit: len=17
  FF FF FF FF FF FF FF 79 
  E7 FF FF FF FF FF FF FF 
  00 
spi_exchange: Prepadded read reg 0 seq
spi_transmit: len=6
  29 40 00 00 00 00 
** trgt -> host offset 0 bits 38: 73 47 01 ba e2
Debug: 244 27 bitbang.c:523 bitbang_swd_read_reg(): OK DP read reg 0 = 2ba01477
Debug: 245 27 bitbang.c:555 bitbang_swd_write_reg(): bitbang_swd_write_reg
** host -> trgt offset 0 bits  8: 81
spi_transmit: len=1
  81 
spi_receive: len=1
  F3 
spi_exchange: JTAG-to-SWD seq
spi_transmit: len=17
  FF FF FF FF FF FF FF 79 
  E7 FF FF FF FF FF FF FF 
  00 
spi_exchange: Prepadded read reg 0 seq
spi_transmit: len=6
  29 40 00 00 00 00 
** trgt -> host offset 0 bits  5: d3
** host -> trgt offset 5 bits 33: d3 03 00 00 80
spi_transmit: len=4
  78 00 00 00 
Debug: 246 28 bitbang.c:582 bitbang_swd_write_reg(): OK DP write reg 0 = 0000001e
Debug: 247 28 bitbang.c:607 bitbang_swd_run_queue(): bitbang_swd_run_queue
spi_transmit: len=1
  00 
Debug: 248 29 bitbang.c:614 bitbang_swd_run_queue(): SWD queue return value: 00
Info : 249 29 adi_v5_swd.c:136 swd_connect(): SWD DPIDR 0x2ba01477
Debug: 250 29 arm_adi_v5.c:653 dap_dp_init(): nrf52.dap
Debug: 251 29 bitbang.c:555 bitbang_swd_write_reg(): bitbang_swd_write_reg
** host -> trgt offset 0 bits  8: b1
spi_transmit: len=1
  8D 
spi_receive: len=1
  FF 
spi_exchange: JTAG-to-SWD seq
spi_transmit: len=17
  FF FF FF FF FF FF FF 79 
  E7 FF FF FF FF FF FF FF 
  00 
spi_exchange: Prepadded read reg 0 seq
spi_transmit: len=6
  29 40 00 00 00 00 
** trgt -> host offset 0 bits  5: 1f
** host -> trgt offset 5 bits 33: 1f 00 00 00 80
spi_transmit: len=4
  00 00 00 00 
Debug: 252 30 bitbang.c:582 bitbang_swd_write_reg(): JUNK DP write reg 8 = 00000000
Debug: 253 30 bitbang.c:598 bitbang_swd_write_reg(): No valid acknowledge: ack=7
Debug: 254 30 bitbang.c:496 bitbang_swd_read_reg(): bitbang_swd_read_reg
Debug: 255 30 bitbang.c:500 bitbang_swd_read_reg(): Skip bitbang_swd_read_reg because queued_retval=7
Debug: 256 30 bitbang.c:607 bitbang_swd_run_queue(): bitbang_swd_run_queue
spi_transmit: len=1
  00 
Debug: 257 31 bitbang.c:614 bitbang_swd_run_queue(): SWD queue return value: 07
Debug: 258 31 bitbang.c:459 bitbang_swd_switch_seq(): bitbang_swd_switch_seq
Debug: 259 31 bitbang.c:467 bitbang_swd_switch_seq(): JTAG-to-SWD
** host -> trgt offset 0 bits 136: ff ff ff ff ff ff ff 9e e7 ff ff ff ff ff ff ff 00
spi_transmit: len=17
  FF FF FF FF FF FF FF 79 
  E7 FF FF FF FF FF FF FF 
  00 
Debug: 260 32 bitbang.c:496 bitbang_swd_read_reg(): bitbang_swd_read_reg
** host -> trgt offset 0 bits  8: a5
spi_transmit: len=1
  A5 
spi_receive: len=5
  73 47 01 BA E2 
spi_exchange: JTAG-to-SWD seq
spi_transmit: len=17
  FF FF FF FF FF FF FF 79 
  E7 FF FF FF FF FF FF FF 
  00 
spi_exchange: Prepadded read reg 0 seq
spi_transmit: len=6
  29 40 00 00 00 00 
** trgt -> host offset 0 bits 38: 73 47 01 ba e2
Debug: 261 33 bitbang.c:523 bitbang_swd_read_reg(): OK DP read reg 0 = 2ba01477
Debug: 262 33 bitbang.c:555 bitbang_swd_write_reg(): bitbang_swd_write_reg
** host -> trgt offset 0 bits  8: 81
spi_transmit: len=1
  81 
spi_receive: len=1
  F3 
spi_exchange: JTAG-to-SWD seq
spi_transmit: len=17
  FF FF FF FF FF FF FF 79 
  E7 FF FF FF FF FF FF FF 
  00 
spi_exchange: Prepadded read reg 0 seq
spi_transmit: len=6
  29 40 00 00 00 00 
** trgt -> host offset 0 bits  5: d3
** host -> trgt offset 5 bits 33: d3 03 00 00 80
spi_transmit: len=4
  78 00 00 00 
Debug: 263 35 bitbang.c:582 bitbang_swd_write_reg(): OK DP write reg 0 = 0000001e
Debug: 264 35 bitbang.c:607 bitbang_swd_run_queue(): bitbang_swd_run_queue
spi_transmit: len=1
  00 
Debug: 265 35 bitbang.c:614 bitbang_swd_run_queue(): SWD queue return value: 00
Info : 266 35 adi_v5_swd.c:136 swd_connect(): SWD DPIDR 0x2ba01477
Debug: 267 35 arm_adi_v5.c:653 dap_dp_init(): nrf52.dap
Debug: 268 35 bitbang.c:555 bitbang_swd_write_reg(): bitbang_swd_write_reg
** host -> trgt offset 0 bits  8: b1
spi_transmit: len=1
  8D 
spi_receive: len=1
  FF 
spi_exchange: JTAG-to-SWD seq
spi_transmit: len=17
  FF FF FF FF FF FF FF 79 
  E7 FF FF FF FF FF FF FF 
  00 
spi_exchange: Prepadded read reg 0 seq
spi_transmit: len=6
  29 40 00 00 00 00 
** trgt -> host offset 0 bits  5: 1f
** host -> trgt offset 5 bits 33: 1f 00 00 00 80
spi_transmit: len=4
  00 00 00 00 
Debug: 269 37 bitbang.c:582 bitbang_swd_write_reg(): JUNK DP write reg 8 = 00000000
